
T0CB8 000:435 SEGGER J-Link V4.80g Log File (0000ms, 0272ms total)
T0CB8 000:435 DLL Compiled: Feb 13 2014 20:50:02 (0000ms, 0272ms total)
T0CB8 000:435 Logging started @ 2016-02-27 11:46 (0000ms, 0272ms total)
T0CB8 000:435 JLINK_SetWarnOutHandler(...) (0000ms, 0272ms total)
T0CB8 000:435 JLINK_OpenEx(...)
Firmware: J-Link ARM V8 compiled Nov 28 2014 13:44:46
Hardware: V8.00
S/N: 68000009
OEM: J-Link-CE
Feature(s): JFlash, FlashDL, RDI, FlashBP, GDB  returns O.K. (0269ms, 0541ms total)
T0CB8 000:704 JLINK_SetErrorOutHandler(...) (0000ms, 0541ms total)
T0CB8 000:704 JLINK_ExecCommand("ProjectFile = "C:\Documents and Settings\Administrator\×ÀÃæ\rt-thread-2.0.1\bsp\stm32f40x\JLinkSettings.ini"", ...)Device "CORTEX-M4" selected (0 KB flash, 0 KB RAM).  returns 0x00 (0000ms, 0541ms total)
T0CB8 000:704 JLINK_ExecCommand("Device = STM32F415RG", ...)Device "CORTEX-M4" selected (0 KB flash, 0 KB RAM).  returns 0x00 (0000ms, 0541ms total)
T0CB8 000:704 JLINK_ExecCommand("DisableConnectionTimeout", ...)  returns 0x01 (0000ms, 0541ms total)
T0CB8 000:704 JLINK_GetHardwareVersion()  returns 0x13880 (0000ms, 0541ms total)
T0CB8 000:704 JLINK_GetDLLVersion()  returns 48007 (0000ms, 0541ms total)
T0CB8 000:705 JLINK_GetDLLVersion()  returns 48007 (0000ms, 0541ms total)
T0CB8 000:705 JLINK_GetCompileDateTime() (0000ms, 0541ms total)
T0CB8 000:705 JLINK_GetFirmwareString(...) (0000ms, 0541ms total)
T0CB8 000:705 JLINK_GetHardwareVersion()  returns 0x13880 (0000ms, 0541ms total)
T0CB8 000:705 JLINK_TIF_Select(JLINKARM_TIF_SWD)  returns 0x00 (0004ms, 0545ms total)
T0CB8 000:709 JLINK_SetSpeed(2000) (0002ms, 0547ms total)
T0CB8 000:711 JLINK_GetId() >0x108 TIF>Found SWD-DP with ID 0x2BA01477 >0x0D TIF> >0x21 TIF> >0x0D TIF> >0x28 TIF> >0x0D TIF> >0x28 TIF> >0x0D TIF> >0x21 TIF> >0x0D TIF> >0x28 TIF> >0x0D TIF> >0x21 TIF> >0x0D TIF> >0x21 TIF> >0x0D TIF> >0x21 TIF> >0x0D TIF> >0x21 TIF> >0x0D TIF> >0x28 TIF> >0x0D TIF> >0x28 TIF> >0x0D TIF> >0x21 TIF> >0x0D TIF> >0x28 TIF> >0x0D TIF> >0x28 TIF> >0x0D TIF> >0x28 TIF> >0x0D TIF> >0x21 TIF> >0x0D TIF> >0x21 TIF> >0x0D TIF> >0x28 TIF> >0x0D TIF> >0x21 TIF> >0x0D TIF>
 >0x21 TIF>Found Cortex-M4 r0p1, Little endian. -- CPU_WriteMem(4 bytes @ 0xE0002000) -- CPU_ReadMem(4 bytes @ 0xE000EDF0) -- CPU_ReadMem(4 bytes @ 0xE0002000)FPUnit: 6 code (BP) slots and 2 literal slots -- CPU_ReadMem(4 bytes @ 0xE000EDFC) -- CPU_ReadMem(4 bytes @ 0xE0001000) -- CPU_WriteMem(4 bytes @ 0xE0001000) -- CPU_ReadMem(4 bytes @ 0xE00FF010)TPIU fitted. -- CPU_ReadMem(4 bytes @ 0xE00FF014)ETM fitted. -- CPU_ReadMem(4 bytes @ 0xE00FF018) >0x0D TIF> >0x21 TIF>  returns 0x2BA01477
 (0058ms, 0605ms total)
T0CB8 000:769 JLINK_GetDeviceFamily()  returns 14 (0000ms, 0605ms total)
T0CB8 000:769 JLINK_ReadMem (0xE00FFFF0, 0x0010 Bytes, ...) -- CPU is running -- CPU_ReadMem(16 bytes @ 0xE00FFFF0) -- Data:  0D 00 00 00 10 00 00 00 05 00 00 00 B1 00 00 00  returns 0x00 (0001ms, 0606ms total)
T0CB8 000:770 JLINK_ReadMem (0xE00FFFD0, 0x0020 Bytes, ...) -- CPU is running -- CPU_ReadMem(32 bytes @ 0xE00FFFD0) -- Data:  00 00 00 00 00 00 00 00 00 00 00 00 00 00 00 00 ...  returns 0x00 (0001ms, 0607ms total)
T0CB8 000:771 JLINK_ReadMem (0xE00FF000, 0x0018 Bytes, ...) -- CPU is running -- CPU_ReadMem(24 bytes @ 0xE00FF000) -- Data:  03 F0 F0 FF 03 20 F0 FF 03 30 F0 FF 03 10 F0 FF ...  returns 0x00 (0001ms, 0608ms total)
T0CB8 000:772 JLINK_ReadMemU32(0xE000ED00, 0x0001 Items, ...) -- CPU is running -- CPU_ReadMem(4 bytes @ 0xE000ED00) -- Data:  41 C2 0F 41  returns 0x01 (0001ms, 0609ms total)
T0CB8 000:773 JLINK_ReadMemU32(0xE000EF40, 0x0001 Items, ...) -- CPU is running -- CPU_ReadMem(4 bytes @ 0xE000EF40) -- Data:  21 00 11 10  returns 0x01 (0001ms, 0610ms total)
T0CB8 000:774 JLINK_ReadMemU32(0xE000EF44, 0x0001 Items, ...) -- CPU is running -- CPU_ReadMem(4 bytes @ 0xE000EF44) -- Data:  11 00 00 11  returns 0x01 (0001ms, 0611ms total)
T0CB8 000:775 JLINK_SetResetType(JLINKARM_RESET_TYPE_NORMAL)  returns JLINKARM_RESET_TYPE_NORMAL (0000ms, 0611ms total)
T0CB8 000:775 JLINK_Reset() -- CPU is running -- CPU_WriteMem(4 bytes @ 0xE000EDF0) -- CPU is running -- CPU_WriteMem(4 bytes @ 0xE000EDFC) >0x35 TIF> -- CPU is running -- CPU_WriteMem(4 bytes @ 0xE000ED0C) -- CPU is running -- CPU_ReadMem(4 bytes @ 0xE000EDF0) -- CPU is running -- CPU_ReadMem(4 bytes @ 0xE000EDF0) -- CPU is running -- CPU_WriteMem(4 bytes @ 0xE000EDF0) -- CPU is running -- CPU_WriteMem(4 bytes @ 0xE000EDFC) -- CPU is running -- CPU_ReadMem(4 bytes @ 0xE000EDF0)
 -- CPU_WriteMem(4 bytes @ 0xE0002000) -- CPU_ReadMem(4 bytes @ 0xE000EDFC) -- CPU_ReadMem(4 bytes @ 0xE0001000) (0027ms, 0638ms total)
T0CB8 000:802 JLINK_ReadReg(R15 (PC))  returns 0x08000388 (0000ms, 0638ms total)
T0CB8 000:802 JLINK_ReadReg(XPSR)  returns 0x01000000 (0000ms, 0638ms total)
T0CB8 000:802 JLINK_Halt()  returns 0x00 (0000ms, 0638ms total)
T0CB8 000:802 JLINK_IsHalted()  returns TRUE (0000ms, 0638ms total)
T0CB8 000:802 JLINK_ReadMemU32(0xE000EDF0, 0x0001 Items, ...) -- CPU_ReadMem(4 bytes @ 0xE000EDF0) -- Data:  03 00 03 00  returns 0x01 (0001ms, 0639ms total)
T0CB8 000:803 JLINK_WriteU32(0xE000EDF0, 0xA05F0003) -- CPU_WriteMem(4 bytes @ 0xE000EDF0)  returns 0x00 (0001ms, 0640ms total)
T0CB8 000:804 JLINK_WriteU32(0xE000EDFC, 0x01000000) -- CPU_WriteMem(4 bytes @ 0xE000EDFC)  returns 0x00 (0001ms, 0641ms total)
T0CB8 000:805 JLINK_GetHWStatus(...)  returns 0x00 (0001ms, 0642ms total)
T0CB8 000:806 JLINK_GetNumBPUnits(Type = 0xFFFFFF00)  returns 0x06 (0000ms, 0642ms total)
T0CB8 000:806 JLINK_GetNumBPUnits(Type = 0xF0)  returns 0x2000 (0000ms, 0642ms total)
T0CB8 000:806 JLINK_GetNumWPUnits()  returns 0x04 (0000ms, 0642ms total)
T0CB8 000:806 JLINK_GetSpeed()  returns 0x7D0 (0000ms, 0642ms total)
T0CB8 000:806 JLINK_ReadMemU32(0xE000E004, 0x0001 Items, ...) -- CPU_ReadMem(4 bytes @ 0xE000E004) -- Data:  02 00 00 00  returns 0x01 (0001ms, 0643ms total)
T0CB8 000:807 JLINK_ReadMemU32(0xE000E004, 0x0001 Items, ...) -- CPU_ReadMem(4 bytes @ 0xE000E004) -- Data:  02 00 00 00  returns 0x01 (0001ms, 0644ms total)
T0CB8 000:808 JLINK_WriteMem(0xE0001000, 0x001C Bytes, ...) -- Data:  01 00 00 00 00 00 00 00 00 00 00 00 00 00 00 00 ... -- CPU_WriteMem(28 bytes @ 0xE0001000)  returns 0x1C (0001ms, 0645ms total)
T0CB8 000:809 JLINK_ReadMem (0xE0001000, 0x001C Bytes, ...) -- CPU_ReadMem(28 bytes @ 0xE0001000) -- Data:  01 00 00 40 00 00 00 00 00 00 00 00 00 00 00 00 ...  returns 0x00 (0001ms, 0646ms total)
T0CB8 000:810 JLINK_ReadReg(R15 (PC))  returns 0x08000388 (0000ms, 0646ms total)
T0CB8 000:810 JLINK_ReadReg(XPSR)  returns 0x01000000 (0000ms, 0646ms total)
T0CB8 000:918 JLINK_SetResetType(JLINKARM_RESET_TYPE_NORMAL)  returns JLINKARM_RESET_TYPE_NORMAL (0000ms, 0646ms total)
T0CB8 000:918 JLINK_Reset() -- CPU_WriteMem(4 bytes @ 0xE000EDF0) -- CPU_WriteMem(4 bytes @ 0xE000EDFC) >0x35 TIF> -- CPU_WriteMem(4 bytes @ 0xE000ED0C) -- CPU_ReadMem(4 bytes @ 0xE000EDF0) -- CPU_ReadMem(4 bytes @ 0xE000EDF0) -- CPU_WriteMem(4 bytes @ 0xE000EDF0) -- CPU_WriteMem(4 bytes @ 0xE000EDFC) -- CPU is running -- CPU_ReadMem(4 bytes @ 0xE000EDF0) -- CPU_WriteMem(4 bytes @ 0xE0002000) -- CPU_ReadMem(4 bytes @ 0xE000EDFC) -- CPU_ReadMem(4 bytes @ 0xE0001000) (0027ms, 0673ms total)
T0CB8 000:945 JLINK_ReadReg(R15 (PC))  returns 0x08000388 (0000ms, 0673ms total)
T0CB8 000:945 JLINK_ReadReg(XPSR)  returns 0x01000000 (0000ms, 0673ms total)
T0CB8 000:946 JLINK_ReadMem (0x08000388, 0x003C Bytes, ...) -- CPU_ReadMem(60 bytes @ 0x08000388) -- Data:  09 48 80 47 09 48 00 47 FE E7 FE E7 FE E7 FE E7 ...  returns 0x00 (0001ms, 0674ms total)
T0CB8 001:042 JLINK_ReadMem (0x40020800, 0x000C Bytes, ...) -- CPU_ReadMem(12 bytes @ 0x40020800) -- Data:  00 00 00 00 00 00 00 00 00 00 00 00  returns 0x00 (0002ms, 0676ms total)
T0CB8 001:045 JLINK_ReadMem (0x4002080C, 0x0004 Bytes, ...) -- CPU_ReadMem(4 bytes @ 0x4002080C) -- Data:  00 00 00 00  returns 0x00 (0000ms, 0676ms total)
T0CB8 001:045 JLINK_ReadMem (0x40020810, 0x0004 Bytes, ...) -- CPU_ReadMem(4 bytes @ 0x40020810) -- Data:  00 00 00 00  returns 0x00 (0001ms, 0677ms total)
T0CB8 001:046 JLINK_ReadMem (0x40020814, 0x0004 Bytes, ...) -- CPU_ReadMem(4 bytes @ 0x40020814) -- Data:  00 00 00 00  returns 0x00 (0001ms, 0678ms total)
T0CB8 001:047 JLINK_ReadMem (0x4002081C, 0x0008 Bytes, ...) -- CPU_ReadMem(8 bytes @ 0x4002081C) -- Data:  00 00 00 00 00 00 00 00  returns 0x00 (0001ms, 0679ms total)
T0CB8 001:049 JLINK_ReadMem (0x40020824, 0x0004 Bytes, ...) -- CPU_ReadMem(4 bytes @ 0x40020824) -- Data:  00 00 00 00  returns 0x00 (0000ms, 0679ms total)
T0CB8 001:848 JLINK_ReadMem (0x20000008, 0x0004 Bytes, ...) -- CPU_ReadMem(4 bytes @ 0x20000008) -- Data:  00 00 00 00  returns 0x00 (0001ms, 0680ms total)
T0CB8 001:853 JLINK_ReadMem (0x20000004, 0x0004 Bytes, ...) -- CPU_ReadMem(4 bytes @ 0x20000004) -- Data:  00 00 00 00  returns 0x00 (0001ms, 0681ms total)
T0CB8 001:863 JLINK_ReadMem (0x2000000C, 0x0001 Bytes, ...) -- CPU_ReadMem(1 bytes @ 0x2000000C) -- Data:  00  returns 0x00 (0001ms, 0682ms total)
T0CB8 001:869 JLINK_ReadMem (0x20000038, 0x0004 Bytes, ...) -- CPU_ReadMem(4 bytes @ 0x20000038) -- Data:  00 00 00 00  returns 0x00 (0001ms, 0683ms total)
T0CB8 001:888 JLINK_ReadMem (0x20000000, 0x0004 Bytes, ...) -- CPU_ReadMem(4 bytes @ 0x20000000) -- Data:  00 00 00 00  returns 0x00 (0002ms, 0685ms total)
T0454 001:920 JLINK_SetBPEx(Addr = 0x08007DC4, Type = 0xFFFFFFF2)  returns 0x00000001 (0000ms, 0685ms total)
T0454 001:920 JLINK_Go() -- CPU_WriteMem(4 bytes @ 0xE0002000) -- CPU_WriteMem(4 bytes @ 0xE0002008) -- CPU_WriteMem(4 bytes @ 0xE000200C) -- CPU_WriteMem(4 bytes @ 0xE0002010) -- CPU_WriteMem(4 bytes @ 0xE0002014) -- CPU_WriteMem(4 bytes @ 0xE0002018) -- CPU_WriteMem(4 bytes @ 0xE000201C) -- CPU_WriteMem(4 bytes @ 0xE0001004) (0019ms, 0704ms total)
T0454 002:040 JLINK_IsHalted()  returns TRUE (0004ms, 0708ms total)
T0454 002:044 JLINK_Halt()  returns 0x00 (0001ms, 0705ms total)
T0454 002:045 JLINK_IsHalted()  returns TRUE (0000ms, 0705ms total)
T0454 002:045 JLINK_IsHalted()  returns TRUE (0000ms, 0705ms total)
T0454 002:045 JLINK_IsHalted()  returns TRUE (0001ms, 0706ms total)
T0454 002:046 JLINK_ReadReg(R15 (PC))  returns 0x08007DC4 (0000ms, 0705ms total)
T0454 002:046 JLINK_ReadReg(XPSR)  returns 0x01000000 (0000ms, 0705ms total)
T0454 002:046 JLINK_ClrBPEx(BPHandle = 0x00000001)  returns 0x00 (0000ms, 0705ms total)
T0454 002:046 JLINK_ReadMemU32(0xE000ED30, 0x0001 Items, ...) -- CPU_ReadMem(4 bytes @ 0xE000ED30) -- Data:  03 00 00 00  returns 0x01 (0000ms, 0705ms total)
T0454 002:046 JLINK_ReadMemU32(0xE0001028, 0x0001 Items, ...) -- CPU_ReadMem(4 bytes @ 0xE0001028) -- Data:  00 00 00 00  returns 0x01 (0001ms, 0706ms total)
T0454 002:047 JLINK_ReadMemU32(0xE0001038, 0x0001 Items, ...) -- CPU_ReadMem(4 bytes @ 0xE0001038) -- Data:  00 02 00 00  returns 0x01 (0001ms, 0707ms total)
T0454 002:049 JLINK_ReadMemU32(0xE0001048, 0x0001 Items, ...) -- CPU_ReadMem(4 bytes @ 0xE0001048) -- Data:  00 00 00 00  returns 0x01 (0000ms, 0707ms total)
T0454 002:049 JLINK_ReadMemU32(0xE0001058, 0x0001 Items, ...) -- CPU_ReadMem(4 bytes @ 0xE0001058) -- Data:  00 00 00 00  returns 0x01 (0001ms, 0708ms total)
T0454 002:050 JLINK_ReadReg(R0)  returns 0x200026F8 (0000ms, 0708ms total)
T0454 002:050 JLINK_ReadReg(R1)  returns 0x200028F8 (0000ms, 0708ms total)
T0454 002:050 JLINK_ReadReg(R2)  returns 0x200028F8 (0000ms, 0708ms total)
T0454 002:050 JLINK_ReadReg(R3)  returns 0x200028F8 (0000ms, 0708ms total)
T0454 002:050 JLINK_ReadReg(R4)  returns 0x00000000 (0000ms, 0708ms total)
T0454 002:050 JLINK_ReadReg(R5)  returns 0x20002694 (0000ms, 0708ms total)
T0454 002:050 JLINK_ReadReg(R6)  returns 0x00000000 (0000ms, 0708ms total)
T0454 002:050 JLINK_ReadReg(R7)  returns 0x00000000 (0000ms, 0708ms total)
T0454 002:050 JLINK_ReadReg(R8)  returns 0x00000000 (0000ms, 0708ms total)
T0454 002:050 JLINK_ReadReg(R9)  returns 0x00000000 (0000ms, 0708ms total)
T0454 002:050 JLINK_ReadReg(R10)  returns 0x0800E8F0 (0000ms, 0708ms total)
T0454 002:050 JLINK_ReadReg(R11)  returns 0x00000000 (0000ms, 0708ms total)
T0454 002:050 JLINK_ReadReg(R12)  returns 0x200026D4 (0000ms, 0708ms total)
T0454 002:050 JLINK_ReadReg(R13 (SP))  returns 0x20002CF8 (0000ms, 0708ms total)
T0454 002:050 JLINK_ReadReg(R14)  returns 0x08000269 (0000ms, 0708ms total)
T0454 002:050 JLINK_ReadReg(R15 (PC))  returns 0x08007DC4 (0000ms, 0708ms total)
T0454 002:050 JLINK_ReadReg(XPSR)  returns 0x01000000 (0000ms, 0708ms total)
T0454 002:050 JLINK_ReadReg(MSP)  returns 0x20002CF8 (0000ms, 0708ms total)
T0454 002:050 JLINK_ReadReg(PSP)  returns 0x00000000 (0000ms, 0708ms total)
T0454 002:050 JLINK_ReadReg(CFBP)  returns 0x04000000 (0000ms, 0708ms total)
T0454 002:050 JLINK_ReadReg(FPSCR)  returns 0x03000000 (0007ms, 0715ms total)
T0454 002:057 JLINK_ReadReg(FPS0)  returns 0x00000000 (0000ms, 0715ms total)
T0454 002:057 JLINK_ReadReg(FPS1)  returns 0x00000000 (0000ms, 0715ms total)
T0454 002:057 JLINK_ReadReg(FPS2)  returns 0x00000000 (0000ms, 0715ms total)
T0454 002:057 JLINK_ReadReg(FPS3)  returns 0x00000000 (0000ms, 0715ms total)
T0454 002:057 JLINK_ReadReg(FPS4)  returns 0x00000000 (0000ms, 0715ms total)
T0454 002:057 JLINK_ReadReg(FPS5)  returns 0x00000000 (0000ms, 0715ms total)
T0454 002:057 JLINK_ReadReg(FPS6)  returns 0x00000000 (0000ms, 0715ms total)
T0454 002:057 JLINK_ReadReg(FPS7)  returns 0x00000000 (0000ms, 0715ms total)
T0454 002:057 JLINK_ReadReg(FPS8)  returns 0x00000000 (0000ms, 0715ms total)
T0454 002:057 JLINK_ReadReg(FPS9)  returns 0x00000000 (0000ms, 0715ms total)
T0454 002:057 JLINK_ReadReg(FPS10)  returns 0x00000000 (0000ms, 0715ms total)
T0454 002:057 JLINK_ReadReg(FPS11)  returns 0x00000000 (0000ms, 0715ms total)
T0454 002:057 JLINK_ReadReg(FPS12)  returns 0x00000000 (0000ms, 0715ms total)
T0454 002:057 JLINK_ReadReg(FPS13)  returns 0x00000000 (0000ms, 0715ms total)
T0454 002:057 JLINK_ReadReg(FPS14)  returns 0x00000000 (0000ms, 0715ms total)
T0454 002:057 JLINK_ReadReg(FPS15)  returns 0x00000000 (0000ms, 0715ms total)
T0454 002:057 JLINK_ReadReg(FPS16)  returns 0x00000000 (0000ms, 0715ms total)
T0454 002:057 JLINK_ReadReg(FPS17)  returns 0x00000000 (0000ms, 0715ms total)
T0454 002:057 JLINK_ReadReg(FPS18)  returns 0x00000000 (0000ms, 0715ms total)
T0454 002:057 JLINK_ReadReg(FPS19)  returns 0x00000000 (0000ms, 0715ms total)
T0454 002:057 JLINK_ReadReg(FPS20)  returns 0x00000000 (0000ms, 0715ms total)
T0454 002:057 JLINK_ReadReg(FPS31)  returns 0x00000000 (0000ms, 0715ms total)
T0454 002:057 JLINK_ReadReg(FPS7)  returns 0x00000000 (0000ms, 0715ms total)
T0454 002:057 JLINK_ReadReg(FPS8)  returns 0x00000000 (0000ms, 0715ms total)
T0454 002:057 JLINK_ReadReg(FPS9)  returns 0x00000000 (0000ms, 0715ms total)
T0454 002:057 JLINK_ReadReg(FPS10)  returns 0x00000000 (0000ms, 0715ms total)
T0454 002:057 JLINK_ReadReg(FPS11)  returns 0x00000000 (0000ms, 0715ms total)
T0454 002:057 JLINK_ReadReg(FPS12)  returns 0x00000000 (0000ms, 0715ms total)
T0454 002:057 JLINK_ReadReg(FPS13)  returns 0x00000000 (0000ms, 0715ms total)
T0454 002:057 JLINK_ReadReg(FPS14)  returns 0x00000000 (0000ms, 0715ms total)
T0454 002:057 JLINK_ReadReg(FPS15)  returns 0x00000000 (0000ms, 0715ms total)
T0454 002:057 JLINK_ReadReg(FPS16)  returns 0x00000000 (0000ms, 0715ms total)
T0CB8 002:058 JLINK_ReadMemU32(0xE0001004, 0x0001 Items, ...) -- CPU_ReadMem(4 bytes @ 0xE0001004) -- Data:  87 3A 00 00  returns 0x01 (0002ms, 0717ms total)
T0CB8 002:060 JLINK_ReadMem (0x20000008, 0x0004 Bytes, ...) -- CPU_ReadMem(4 bytes @ 0x20000008) -- Data:  00 00 00 00  returns 0x00 (0001ms, 0718ms total)
T0CB8 002:061 JLINK_ReadMem (0x20000004, 0x0004 Bytes, ...) -- CPU_ReadMem(4 bytes @ 0x20000004) -- Data:  00 00 00 00  returns 0x00 (0001ms, 0719ms total)
T0CB8 002:062 JLINK_ReadMem (0x2000000C, 0x0001 Bytes, ...) -- CPU_ReadMem(1 bytes @ 0x2000000C) -- Data:  00  returns 0x00 (0001ms, 0720ms total)
T0CB8 002:063 JLINK_ReadMem (0x20000038, 0x0004 Bytes, ...) -- CPU_ReadMem(4 bytes @ 0x20000038) -- Data:  00 00 00 00  returns 0x00 (0001ms, 0721ms total)
T0CB8 002:065 JLINK_ReadMem (0x20000000, 0x0004 Bytes, ...) -- CPU_ReadMem(4 bytes @ 0x20000000) -- Data:  00 00 00 00  returns 0x00 (0001ms, 0722ms total)
T0CB8 002:067 JLINK_ReadMem (0x40020800, 0x000C Bytes, ...) -- CPU_ReadMem(12 bytes @ 0x40020800) -- Data:  00 00 00 00 00 00 00 00 00 00 00 00  returns 0x00 (0001ms, 0723ms total)
T0CB8 002:068 JLINK_ReadMem (0x4002080C, 0x0004 Bytes, ...) -- CPU_ReadMem(4 bytes @ 0x4002080C) -- Data:  00 00 00 00  returns 0x00 (0001ms, 0724ms total)
T0CB8 002:069 JLINK_ReadMem (0x40020810, 0x0004 Bytes, ...) -- CPU_ReadMem(4 bytes @ 0x40020810) -- Data:  00 00 00 00  returns 0x00 (0001ms, 0725ms total)
T0CB8 002:070 JLINK_ReadMem (0x40020814, 0x0004 Bytes, ...) -- CPU_ReadMem(4 bytes @ 0x40020814) -- Data:  00 00 00 00  returns 0x00 (0001ms, 0726ms total)
T0CB8 002:071 JLINK_ReadMem (0x4002081C, 0x0008 Bytes, ...) -- CPU_ReadMem(8 bytes @ 0x4002081C) -- Data:  00 00 00 00 00 00 00 00  returns 0x00 (0001ms, 0727ms total)
T0CB8 002:072 JLINK_ReadMem (0x40020824, 0x0004 Bytes, ...) -- CPU_ReadMem(4 bytes @ 0x40020824) -- Data:  00 00 00 00  returns 0x00 (0001ms, 0728ms total)
T0CB8 002:075 JLINK_ReadMem (0x08007DC4, 0x003C Bytes, ...) -- CPU_ReadMem(64 bytes @ 0x08007DC0) -- Updating DA cache (64 bytes @ 0x08007DC0) -- Read from DA cache (60 bytes @ 0x08007DC4) -- Data:  10 B5 F8 F7 57 FA 04 F0 A7 FA 00 20 10 BD 2D E9 ...  returns 0x00 (0001ms, 0729ms total)
T0CB8 005:490 JLINK_ReadMem (0x200001C8, 0x0004 Bytes, ...) -- CPU_ReadMem(4 bytes @ 0x200001C8) -- Data:  00 00 00 00  returns 0x00 (0002ms, 0731ms total)
T0CB8 005:492 JLINK_ReadMem (0x200001CC, 0x0004 Bytes, ...) -- CPU_ReadMem(4 bytes @ 0x200001CC) -- Data:  00 00 00 00  returns 0x00 (0001ms, 0732ms total)
T0CB8 005:493 JLINK_ReadMem (0x200001D0, 0x0004 Bytes, ...) -- CPU_ReadMem(4 bytes @ 0x200001D0) -- Data:  00 00 00 00  returns 0x00 (0001ms, 0733ms total)
T0CB8 005:494 JLINK_ReadMem (0x200001D4, 0x0004 Bytes, ...) -- CPU_ReadMem(4 bytes @ 0x200001D4) -- Data:  00 00 00 00  returns 0x00 (0001ms, 0734ms total)
T0454 009:571 JLINK_Go() -- CPU_WriteMem(4 bytes @ 0xE0002008) (0004ms, 0738ms total)
T0454 009:675 JLINK_IsHalted()  returns FALSE (0001ms, 0739ms total)
T0454 009:777 JLINK_IsHalted()  returns FALSE (0001ms, 0739ms total)
T0454 009:879 JLINK_IsHalted()  returns FALSE (0000ms, 0738ms total)
T0454 009:979 JLINK_IsHalted()  returns FALSE (0001ms, 0739ms total)
T0454 010:081 JLINK_ReadMemU32(0xE0001004, 0x0001 Items, ...) -- CPU is running -- CPU_ReadMem(4 bytes @ 0xE0001004) -- Data:  65 1D 12 05  returns 0x01 (0000ms, 0738ms total)
T0CB8 010:082 JLINK_ReadMem (0x200001C8, 0x0004 Bytes, ...) -- CPU is running -- CPU_ReadMem(4 bytes @ 0x200001C8) -- Data:  00 7A 03 0A  returns 0x00 (0001ms, 0739ms total)
T0CB8 010:084 JLINK_ReadMem (0x200001CC, 0x0004 Bytes, ...) -- CPU is running -- CPU_ReadMem(4 bytes @ 0x200001CC) -- Data:  00 7A 03 0A  returns 0x00 (0000ms, 0739ms total)
T0CB8 010:085 JLINK_ReadMem (0x200001D0, 0x0004 Bytes, ...) -- CPU is running -- CPU_ReadMem(4 bytes @ 0x200001D0) -- Data:  80 DE 80 02  returns 0x00 (0000ms, 0739ms total)
T0CB8 010:086 JLINK_ReadMem (0x200001D4, 0x0004 Bytes, ...) -- CPU is running -- CPU_ReadMem(4 bytes @ 0x200001D4) -- Data:  00 BD 01 05  returns 0x00 (0000ms, 0739ms total)
T0CB8 010:087 JLINK_ReadMem (0x20000008, 0x0004 Bytes, ...) -- CPU is running -- CPU_ReadMem(4 bytes @ 0x20000008) -- Data:  00 00 00 00  returns 0x00 (0000ms, 0739ms total)
T0CB8 010:088 JLINK_ReadMem (0x20000004, 0x0004 Bytes, ...) -- CPU is running -- CPU_ReadMem(4 bytes @ 0x20000004) -- Data:  00 00 00 00  returns 0x00 (0001ms, 0740ms total)
T0CB8 010:089 JLINK_ReadMem (0x2000000C, 0x0001 Bytes, ...) -- CPU is running -- CPU_ReadMem(1 bytes @ 0x2000000C) -- Data:  00  returns 0x00 (0001ms, 0741ms total)
T0CB8 010:090 JLINK_ReadMem (0x20000038, 0x0004 Bytes, ...) -- CPU is running -- CPU_ReadMem(4 bytes @ 0x20000038) -- Data:  00 00 00 00  returns 0x00 (0000ms, 0741ms total)
T0CB8 010:090 JLINK_ReadMem (0x20000000, 0x0004 Bytes, ...) -- CPU is running -- CPU_ReadMem(4 bytes @ 0x20000000) -- Data:  00 00 00 00  returns 0x00 (0002ms, 0743ms total)
T0CB8 010:092 JLINK_ReadMem (0x40020800, 0x000C Bytes, ...) -- CPU is running -- CPU_ReadMem(12 bytes @ 0x40020800) -- Data:  00 00 00 00 00 00 00 00 00 00 00 00  returns 0x00 (0002ms, 0745ms total)
T0CB8 010:094 JLINK_ReadMem (0x4002080C, 0x0004 Bytes, ...) -- CPU is running -- CPU_ReadMem(4 bytes @ 0x4002080C) -- Data:  00 00 00 00  returns 0x00 (0001ms, 0746ms total)
T0CB8 010:095 JLINK_ReadMem (0x40020810, 0x0004 Bytes, ...) -- CPU is running -- CPU_ReadMem(4 bytes @ 0x40020810) -- Data:  00 00 00 00  returns 0x00 (0001ms, 0747ms total)
T0CB8 010:096 JLINK_ReadMem (0x40020814, 0x0004 Bytes, ...) -- CPU is running -- CPU_ReadMem(4 bytes @ 0x40020814) -- Data:  00 00 00 00  returns 0x00 (0001ms, 0748ms total)
T0CB8 010:097 JLINK_ReadMem (0x4002081C, 0x0008 Bytes, ...) -- CPU is running -- CPU_ReadMem(8 bytes @ 0x4002081C) -- Data:  00 00 00 00 00 00 00 00  returns 0x00 (0001ms, 0749ms total)
T0CB8 010:098 JLINK_ReadMem (0x40020824, 0x0004 Bytes, ...) -- CPU is running -- CPU_ReadMem(4 bytes @ 0x40020824) -- Data:  00 00 00 00  returns 0x00 (0001ms, 0750ms total)
T0454 010:099 JLINK_IsHalted()  returns FALSE (0001ms, 0751ms total)
T0454 010:201 JLINK_IsHalted()  returns FALSE (0000ms, 0750ms total)
T0454 010:301 JLINK_IsHalted()  returns FALSE (0001ms, 0751ms total)
T0454 010:403 JLINK_IsHalted()  returns FALSE (0001ms, 0751ms total)
T0454 010:505 JLINK_IsHalted()  returns FALSE (0002ms, 0752ms total)
T0454 010:607 JLINK_ReadMemU32(0xE0001004, 0x0001 Items, ...) -- CPU is running -- CPU_ReadMem(4 bytes @ 0xE0001004) -- Data:  2F 8A 58 0A  returns 0x01 (0001ms, 0751ms total)
T0CB8 010:608 JLINK_ReadMem (0x200001C8, 0x0004 Bytes, ...) -- CPU is running -- CPU_ReadMem(4 bytes @ 0x200001C8) -- Data:  00 7A 03 0A  returns 0x00 (0001ms, 0752ms total)
T0CB8 010:609 JLINK_ReadMem (0x200001CC, 0x0004 Bytes, ...) -- CPU is running -- CPU_ReadMem(4 bytes @ 0x200001CC) -- Data:  00 7A 03 0A  returns 0x00 (0001ms, 0753ms total)
T0CB8 010:610 JLINK_ReadMem (0x200001D0, 0x0004 Bytes, ...) -- CPU is running -- CPU_ReadMem(4 bytes @ 0x200001D0) -- Data:  80 DE 80 02  returns 0x00 (0001ms, 0754ms total)
T0CB8 010:611 JLINK_ReadMem (0x200001D4, 0x0004 Bytes, ...) -- CPU is running -- CPU_ReadMem(4 bytes @ 0x200001D4) -- Data:  00 BD 01 05  returns 0x00 (0001ms, 0755ms total)
T0CB8 010:612 JLINK_ReadMem (0x20000008, 0x0004 Bytes, ...) -- CPU is running -- CPU_ReadMem(4 bytes @ 0x20000008) -- Data:  00 00 00 00  returns 0x00 (0001ms, 0756ms total)
T0CB8 010:613 JLINK_ReadMem (0x20000004, 0x0004 Bytes, ...) -- CPU is running -- CPU_ReadMem(4 bytes @ 0x20000004) -- Data:  00 00 00 00  returns 0x00 (0001ms, 0757ms total)
T0CB8 010:614 JLINK_ReadMem (0x2000000C, 0x0001 Bytes, ...) -- CPU is running -- CPU_ReadMem(1 bytes @ 0x2000000C) -- Data:  00  returns 0x00 (0001ms, 0758ms total)
T0CB8 010:615 JLINK_ReadMem (0x20000038, 0x0004 Bytes, ...) -- CPU is running -- CPU_ReadMem(4 bytes @ 0x20000038) -- Data:  00 00 00 00  returns 0x00 (0001ms, 0759ms total)
T0CB8 010:617 JLINK_ReadMem (0x20000000, 0x0004 Bytes, ...) -- CPU is running -- CPU_ReadMem(4 bytes @ 0x20000000) -- Data:  00 00 00 00  returns 0x00 (0001ms, 0760ms total)
T0CB8 010:619 JLINK_ReadMem (0x40020800, 0x000C Bytes, ...) -- CPU is running -- CPU_ReadMem(12 bytes @ 0x40020800) -- Data:  00 00 00 00 00 00 00 00 00 00 00 00  returns 0x00 (0001ms, 0761ms total)
T0CB8 010:620 JLINK_ReadMem (0x4002080C, 0x0004 Bytes, ...) -- CPU is running -- CPU_ReadMem(4 bytes @ 0x4002080C) -- Data:  00 00 00 00  returns 0x00 (0001ms, 0762ms total)
T0CB8 010:621 JLINK_ReadMem (0x40020810, 0x0004 Bytes, ...) -- CPU is running -- CPU_ReadMem(4 bytes @ 0x40020810) -- Data:  00 00 00 00  returns 0x00 (0001ms, 0763ms total)
T0CB8 010:622 JLINK_ReadMem (0x40020814, 0x0004 Bytes, ...) -- CPU is running -- CPU_ReadMem(4 bytes @ 0x40020814) -- Data:  00 00 00 00  returns 0x00 (0001ms, 0764ms total)
T0CB8 010:623 JLINK_ReadMem (0x4002081C, 0x0008 Bytes, ...) -- CPU is running -- CPU_ReadMem(8 bytes @ 0x4002081C) -- Data:  00 00 00 00 00 00 00 00  returns 0x00 (0001ms, 0765ms total)
T0CB8 010:624 JLINK_ReadMem (0x40020824, 0x0004 Bytes, ...) -- CPU is running -- CPU_ReadMem(4 bytes @ 0x40020824) -- Data:  00 00 00 00  returns 0x00 (0001ms, 0766ms total)
T0454 010:626 JLINK_IsHalted()  returns FALSE (0001ms, 0767ms total)
T0454 010:727 JLINK_IsHalted()  returns FALSE (0001ms, 0767ms total)
T0454 010:829 JLINK_IsHalted()  returns FALSE (0000ms, 0766ms total)
T0454 010:929 JLINK_IsHalted()  returns FALSE (0001ms, 0767ms total)
T0454 011:031 JLINK_IsHalted()  returns FALSE (0000ms, 0766ms total)
